
T0450 000:047 SEGGER J-Link V4.68a Log File (0001ms, 0047ms total)
T0450 000:047 DLL Compiled: Apr 12 2013 13:26:50 (0001ms, 0047ms total)
T0450 000:047 Logging started @ 2014-11-12 13:00 (0001ms, 0047ms total)
T0450 000:048 JLINK_SetWarnOutHandler(...) (0000ms, 0047ms total)
T0450 000:048 JLINK_OpenEx(...)
Firmware: J-Link ARM V8 compiled Nov 14 2012 22:34:52
Hardware: V8.00
S/N: 17935099
Feature(s): RDI,FlashDL,FlashBP,JFlash  returns O.K. (0020ms, 0067ms total)
T0450 000:068 JLINK_SetErrorOutHandler(...) (0000ms, 0067ms total)
T0450 000:068 JLINK_ExecCommand("ProjectFile = "G:\2014年5月1号前\青风系列开发板\青风stm32f373-one光盘资料\stm32f373代码\实验十七：文件系统sd卡读取（库函数）\user\JLinkSettings.ini"", ...)  returns 0x00 (0004ms, 0071ms total)
T0450 000:113 JLINK_ExecCommand("Device = STM32F373RC", ...)
                JLINK_AddMirrorAreaEx(Addr = 0x00000000, Size = 0x00000000) (0000ms, 0000ms total)
              Device "STM32F373RC" selected (256 KB flash, 32 KB RAM).  returns 0x00 (0002ms, 0073ms total)
T0450 000:115 JLINK_ExecCommand("DisableConnectionTimeout", ...)  returns 0x00 (0000ms, 0073ms total)
T0450 000:115 JLINK_GetHardwareVersion()  returns 0x13880 (0000ms, 0073ms total)
T0450 000:115 JLINK_GetDLLVersion()  returns 46801 (0000ms, 0073ms total)
T0450 000:115 JLINK_GetFirmwareString(...) (0000ms, 0073ms total)
T0450 000:124 JLINK_GetDLLVersion()  returns 46801 (0000ms, 0073ms total)
T0450 000:124 JLINK_GetCompileDateTime() (0000ms, 0073ms total)
T0450 000:125 JLINK_GetFirmwareString(...) (0000ms, 0073ms total)
T0450 000:127 JLINK_GetHardwareVersion()  returns 0x13880 (0000ms, 0073ms total)
T0450 000:140 JLINK_TIF_Select(JLINKARM_TIF_SWD)  returns 0x00 (0003ms, 0076ms total)
T0450 000:143 JLINK_SetSpeed(2000) (0000ms, 0076ms total)
T0450 000:143 JLINK_GetId() >0x108 TIF>Found SWD-DP with ID 0x2BA01477 >0x0D TIF> >0x28 TIF> >0x0D TIF> >0x28 TIF> >0x0D TIF> >0x21 TIF> >0x0D TIF> >0x28 TIF> >0x0D TIF> >0x28 TIF> >0x0D TIF> >0x28 TIF> >0x0D TIF> >0x21 TIF> >0x0D TIF> >0x21 TIF> >0x0D TIF> >0x28 TIF> >0x0D TIF> >0x21 TIF> >0x0D TIF> >0x21 TIF> >0x0D TIF> >0x28 TIF> >0x0D TIF> >0x21 TIF> >0x0D TIF> >0x21 TIF> >0x108 TIF>Found SWD-DP with ID 0x2BA01477 >0x0D TIF> >0x21 TIF> >0x0D TIF> >0x28 TIF> >0x0D TIF> >0x28 TIF> >0x0D TIF> >0x21 TIF>
 >0x0D TIF> >0x21 TIF> >0x0D TIF> >0x28 TIF> >0x0D TIF> >0x21 TIF> >0x0D TIF> >0x21 TIF> >0x0D TIF> >0x21 TIF> >0x0D TIF> >0x21 TIF> >0x0D TIF> >0x21 TIF> >0x0D TIF> >0x28 TIF> >0x0D TIF> >0x28 TIF> >0x0D TIF> >0x21 TIF> >0x0D TIF> >0x21 TIF> >0x0D TIF> >0x28 TIF> >0x0D TIF> >0x21 TIF> >0x0D TIF> >0x21 TIF> >0x0D TIF> >0x28 TIF> >0x0D TIF> >0x28 TIF> >0x0D TIF> >0x28 TIF> >0x0D TIF> >0x21 TIF> >0x0D TIF> >0x21 TIF> >0x0D TIF> >0x28 TIF> >0x0D TIF> >0x28 TIF> >0x0D TIF> >0x28 TIF> >0x0D TIF> >0x21 TIF>
 >0x0D TIF> >0x21 TIF> >0x0D TIF> >0x21 TIF>TPIU fitted.ETM fitted. >0x0D TIF> >0x28 TIF> >0x0D TIF> >0x21 TIF> >0x0D TIF> >0x21 TIF> >0x0D TIF> >0x28 TIF> >0x0D TIF> >0x21 TIF> >0x0D TIF> >0x21 TIF>FPUnit: 6 code (BP) slots and 2 literal slots >0x0D TIF> >0x28 TIF> >0x0D TIF> >0x21 TIF> >0x0D TIF> >0x21 TIF> >0x0D TIF> >0x28 TIF> >0x0D TIF> >0x21 TIF> >0x0D TIF> >0x21 TIF> >0x0D TIF> >0x28 TIF> >0x0D TIF> >0x21 TIF> >0x0D TIF> >0x21 TIF> >0x0D TIF> >0x28 TIF> >0x0D TIF> >0x21 TIF> >0x0D TIF> >0x21 TIF>
Found Cortex-M4 r0p1, Little endian. -- CPU_WriteMem(32768 bytes @ 0x20000000) >0x0D TIF> >0x21 TIF>  returns 0x2BA01477 (0435ms, 0511ms total)
T0450 000:578 JLINK_GetDeviceFamily()  returns 14 (0000ms, 0511ms total)
T0450 000:580 JLINK_ReadMem (0xE00FFFF0, 0x0010 Bytes, ...) -- CPU_ReadMem(16 bytes @ 0xE00FFFF0) -- Data:  0D 00 00 00 10 00 00 00 05 00 00 00 B1 00 00 00  returns 0x00 (0001ms, 0512ms total)
T0450 000:581 JLINK_ReadMem (0xE00FFFD0, 0x0020 Bytes, ...) -- CPU_ReadMem(32 bytes @ 0xE00FFFD0) -- Data:  00 00 00 00 00 00 00 00 00 00 00 00 00 00 00 00 ...  returns 0x00 (0001ms, 0513ms total)
T0450 000:582 JLINK_ReadMem (0xE00FF000, 0x0018 Bytes, ...) -- CPU_ReadMem(24 bytes @ 0xE00FF000) -- Data:  03 F0 F0 FF 03 20 F0 FF 03 30 F0 FF 03 10 F0 FF ...  returns 0x00 (0002ms, 0515ms total)
T0450 000:584 JLINK_ReadMemU32(0xE000ED00, 0x0001 Items, ...) -- CPU_ReadMem(4 bytes @ 0xE000ED00) -- Data:  41 C2 0F 41  returns 0x01 (0000ms, 0515ms total)
T0450 000:584 JLINK_ReadMemU32(0xE000EF40, 0x0001 Items, ...) -- CPU_ReadMem(4 bytes @ 0xE000EF40) -- Data:  21 00 11 10  returns 0x01 (0001ms, 0516ms total)
T0450 000:585 JLINK_ReadMemU32(0xE000EF44, 0x0001 Items, ...) -- CPU_ReadMem(4 bytes @ 0xE000EF44) -- Data:  11 00 00 11  returns 0x01 (0003ms, 0519ms total)
T0450 000:588 JLINK_SetResetType(JLINKARM_RESET_TYPE_NORMAL)  returns JLINKARM_RESET_TYPE_NORMAL (0000ms, 0519ms total)
T0450 000:588 JLINK_Reset() -- CPU_WriteMem(4 bytes @ 0xE000EDF0) -- CPU_WriteMem(4 bytes @ 0xE000EDFC) >0x35 TIF> -- CPU_WriteMem(4 bytes @ 0xE000ED0C) -- CPU_ReadMem(4 bytes @ 0xE000EDF0) -- CPU_ReadMem(4 bytes @ 0xE000EDF0) -- CPU_WriteMem(4 bytes @ 0xE000EDF0) -- CPU_WriteMem(4 bytes @ 0xE000EDFC) -- CPU is running -- CPU_ReadMem(4 bytes @ 0xE000EDF0) -- CPU_WriteMem(4 bytes @ 0xE0002000) (0021ms, 0540ms total)
T0450 000:609 JLINK_Halt()  returns 0x00 (0001ms, 0541ms total)
T0450 000:610 JLINK_IsHalted()  returns TRUE (0000ms, 0541ms total)
T0450 000:610 JLINK_ReadMemU32(0xE000EDF0, 0x0001 Items, ...) -- CPU_ReadMem(4 bytes @ 0xE000EDF0) -- Data:  03 00 03 00  returns 0x01 (0000ms, 0541ms total)
T0450 000:610 JLINK_WriteU32(0xE000EDF0, 0xA05F0003) -- CPU_WriteMem(4 bytes @ 0xE000EDF0)  returns 0x00 (0001ms, 0542ms total)
T0450 000:611 JLINK_WriteU32(0xE000EDFC, 0x01000000) -- CPU_WriteMem(4 bytes @ 0xE000EDFC)  returns 0x00 (0001ms, 0543ms total)
T0450 000:622 JLINK_GetHWStatus(...)  returns 0x00 (0000ms, 0543ms total)
T0450 000:627 JLINK_GetNumBPUnits(Type = 0xFFFFFF00)  returns 0x06 (0000ms, 0543ms total)
T0450 000:627 JLINK_GetNumBPUnits(Type = 0xF0)  returns 0x2000 (0000ms, 0543ms total)
T0450 000:627 JLINK_GetNumWPUnits()  returns 0x04 (0000ms, 0543ms total)
T0450 000:632 JLINK_GetSpeed()  returns 0x7D0 (0000ms, 0543ms total)
T0450 000:638 JLINK_ReadMemU32(0xE000E004, 0x0001 Items, ...) -- CPU_ReadMem(4 bytes @ 0xE000E004) -- Data:  02 00 00 00  returns 0x01 (0001ms, 0544ms total)
T0450 000:639 JLINK_ReadMemU32(0xE000E004, 0x0001 Items, ...) -- CPU_ReadMem(4 bytes @ 0xE000E004) -- Data:  02 00 00 00  returns 0x01 (0000ms, 0544ms total)
T0450 000:639 JLINK_WriteMem(0xE0001000, 0x001C Bytes, ...) -- Data:  01 00 00 00 00 00 00 00 00 00 00 00 00 00 00 00 ... -- CPU_WriteMem(28 bytes @ 0xE0001000)  returns 0x1C (0001ms, 0545ms total)
T0450 000:641 JLINK_ReadMem (0xE0001000, 0x001C Bytes, ...) -- CPU_ReadMem(28 bytes @ 0xE0001000) -- Data:  01 00 00 40 00 00 00 00 00 00 00 00 00 00 00 00 ...  returns 0x00 (0001ms, 0547ms total)
T0450 000:642 JLINK_Halt()  returns 0x00 (0000ms, 0547ms total)
T0450 000:642 JLINK_IsHalted()  returns TRUE (0000ms, 0547ms total)
T0450 000:644 JLINK_WriteMem(0x20000000, 0x0134 Bytes, ...) -- Data:  00 BE 0A E0 0D 78 2D 06 68 40 08 24 40 00 00 D3 ... -- CPU_WriteMem(308 bytes @ 0x20000000)  returns 0x134 (0004ms, 0551ms total)
T0450 000:648 JLINK_WriteReg(R0, 0x08000000)  returns 0x00 (0000ms, 0551ms total)
T0450 000:648 JLINK_WriteReg(R1, 0x007A1200)  returns 0x00 (0000ms, 0551ms total)
T0450 000:648 JLINK_WriteReg(R2, 0x00000001)  returns 0x00 (0000ms, 0551ms total)
T0450 000:648 JLINK_WriteReg(R3, 0x00000000)  returns 0x00 (0000ms, 0551ms total)
T0450 000:648 JLINK_WriteReg(R4, 0x00000000)  returns 0x00 (0000ms, 0551ms total)
T0450 000:648 JLINK_WriteReg(R5, 0x00000000)  returns 0x00 (0000ms, 0551ms total)
T0450 000:648 JLINK_WriteReg(R6, 0x00000000)  returns 0x00 (0000ms, 0551ms total)
T0450 000:648 JLINK_WriteReg(R7, 0x00000000)  returns 0x00 (0000ms, 0551ms total)
T0450 000:648 JLINK_WriteReg(R8, 0x00000000)  returns 0x00 (0000ms, 0551ms total)
T0450 000:648 JLINK_WriteReg(R9, 0x20000130)  returns 0x00 (0000ms, 0551ms total)
T0450 000:648 JLINK_WriteReg(R10, 0x00000000)  returns 0x00 (0000ms, 0551ms total)
T0450 000:648 JLINK_WriteReg(R11, 0x00000000)  returns 0x00 (0000ms, 0551ms total)
T0450 000:648 JLINK_WriteReg(R12, 0x00000000)  returns 0x00 (0000ms, 0551ms total)
T0450 000:648 JLINK_WriteReg(R13, 0x20000800)  returns 0x00 (0000ms, 0551ms total)
T0450 000:648 JLINK_WriteReg(R14, 0x20000001)  returns 0x00 (0001ms, 0552ms total)
T0450 000:649 JLINK_WriteReg(R15, 0x20000038)  returns 0x00 (0000ms, 0552ms total)
T0450 000:649 JLINK_WriteReg(XPSR, 0x01000000)  returns 0x00 (0000ms, 0552ms total)
T0450 000:649 JLINK_WriteReg(MSP, 0x20000800)  returns 0x00 (0000ms, 0552ms total)
T0450 000:649 JLINK_WriteReg(PSP, 0x20000800)  returns 0x00 (0000ms, 0552ms total)
T0450 000:649 JLINK_WriteReg(CFBP, 0x00000000)  returns 0x00 (0000ms, 0552ms total)
T0450 000:649 JLINK_SetBPEx(Addr = 0x20000000, Type = 0xFFFFFFF2) -- CPU_ReadMem(2 bytes @ 0x20000000)  returns 0x00000001 (0003ms, 0555ms total)
T0450 000:652 JLINK_Go() -- CPU_WriteMem(2 bytes @ 0x20000000) -- CPU_WriteMem(4 bytes @ 0xE0002008) -- CPU_WriteMem(4 bytes @ 0xE000200C) -- CPU_WriteMem(4 bytes @ 0xE0002010) -- CPU_WriteMem(4 bytes @ 0xE0002014) -- CPU_WriteMem(4 bytes @ 0xE0002018) -- CPU_WriteMem(4 bytes @ 0xE000201C) (0008ms, 0563ms total)
T0450 000:660 JLINK_IsHalted() -- CPU_ReadMem(2 bytes @ 0x20000000)  returns TRUE (0005ms, 0568ms total)
T0450 000:665 JLINK_ReadReg(R15)  returns 0x20000000 (0000ms, 0563ms total)
T0450 000:665 JLINK_ClrBPEx(BPHandle = 0x00000001)  returns 0x00 (0000ms, 0563ms total)
T0450 000:665 JLINK_ReadReg(R0)  returns 0x00000000 (0000ms, 0563ms total)
T0450 000:666 JLINK_WriteReg(R0, 0x08000000)  returns 0x00 (0000ms, 0563ms total)
T0450 000:666 JLINK_WriteReg(R1, 0x00000800)  returns 0x00 (0000ms, 0563ms total)
T0450 000:666 JLINK_WriteReg(R2, 0x000000FF)  returns 0x00 (0000ms, 0563ms total)
T0450 000:666 JLINK_WriteReg(R3, 0x00000000)  returns 0x00 (0000ms, 0563ms total)
T0450 000:666 JLINK_WriteReg(R4, 0x00000000)  returns 0x00 (0000ms, 0563ms total)
T0450 000:666 JLINK_WriteReg(R5, 0x00000000)  returns 0x00 (0000ms, 0563ms total)
T0450 000:666 JLINK_WriteReg(R6, 0x00000000)  returns 0x00 (0000ms, 0563ms total)
T0450 000:666 JLINK_WriteReg(R7, 0x00000000)  returns 0x00 (0000ms, 0563ms total)
T0450 000:666 JLINK_WriteReg(R8, 0x00000000)  returns 0x00 (0000ms, 0563ms total)
T0450 000:666 JLINK_WriteReg(R9, 0x20000130)  returns 0x00 (0000ms, 0563ms total)
T0450 000:666 JLINK_WriteReg(R10, 0x00000000)  returns 0x00 (0000ms, 0563ms total)
T0450 000:666 JLINK_WriteReg(R11, 0x00000000)  returns 0x00 (0000ms, 0563ms total)
T0450 000:666 JLINK_WriteReg(R12, 0x00000000)  returns 0x00 (0000ms, 0563ms total)
T0450 000:666 JLINK_WriteReg(R13, 0x20000800)  returns 0x00 (0000ms, 0563ms total)
T0450 000:666 JLINK_WriteReg(R14, 0x20000001)  returns 0x00 (0000ms, 0563ms total)
T0450 000:666 JLINK_WriteReg(R15, 0x20000020)  returns 0x00 (0000ms, 0563ms total)
T0450 000:666 JLINK_WriteReg(XPSR, 0x01000000)  returns 0x00 (0000ms, 0563ms total)
T0450 000:666 JLINK_WriteReg(MSP, 0x20000800)  returns 0x00 (0000ms, 0563ms total)
T0450 000:666 JLINK_WriteReg(PSP, 0x20000800)  returns 0x00 (0000ms, 0563ms total)
T0450 000:666 JLINK_WriteReg(CFBP, 0x00000000)  returns 0x00 (0000ms, 0563ms total)
T0450 000:666 JLINK_SetBPEx(Addr = 0x20000000, Type = 0xFFFFFFF2)  returns 0x00000002 (0000ms, 0563ms total)
T0450 000:666 JLINK_Go() (0003ms, 0566ms total)
T0450 000:669 JLINK_IsHalted() -- CPU_ReadMem(2 bytes @ 0x20000000)  returns TRUE (0004ms, 0570ms total)
T0450 000:673 JLINK_ReadReg(R15)  returns 0x20000000 (0001ms, 0567ms total)
T0450 000:674 JLINK_ClrBPEx(BPHandle = 0x00000002)  returns 0x00 (0000ms, 0567ms total)
T0450 000:674 JLINK_ReadReg(R0)  returns 0x00000001 (0000ms, 0567ms total)
T0450 000:674 JLINK_WriteReg(R0, 0x08000000)  returns 0x00 (0000ms, 0567ms total)
T0450 000:674 JLINK_WriteReg(R1, 0x00000800)  returns 0x00 (0000ms, 0567ms total)
T0450 000:674 JLINK_WriteReg(R2, 0x000000FF)  returns 0x00 (0000ms, 0567ms total)
T0450 000:674 JLINK_WriteReg(R3, 0x00000000)  returns 0x00 (0000ms, 0567ms total)
T0450 000:674 JLINK_WriteReg(R4, 0x00000000)  returns 0x00 (0000ms, 0567ms total)
T0450 000:674 JLINK_WriteReg(R5, 0x00000000)  returns 0x00 (0000ms, 0567ms total)
T0450 000:674 JLINK_WriteReg(R6, 0x00000000)  returns 0x00 (0000ms, 0567ms total)
T0450 000:674 JLINK_WriteReg(R7, 0x00000000)  returns 0x00 (0000ms, 0567ms total)
T0450 000:674 JLINK_WriteReg(R8, 0x00000000)  returns 0x00 (0000ms, 0567ms total)
T0450 000:674 JLINK_WriteReg(R9, 0x20000130)  returns 0x00 (0000ms, 0567ms total)
T0450 000:674 JLINK_WriteReg(R10, 0x00000000)  returns 0x00 (0000ms, 0567ms total)
T0450 000:674 JLINK_WriteReg(R11, 0x00000000)  returns 0x00 (0000ms, 0567ms total)
T0450 000:674 JLINK_WriteReg(R12, 0x00000000)  returns 0x00 (0000ms, 0567ms total)
T0450 000:674 JLINK_WriteReg(R13, 0x20000800)  returns 0x00 (0000ms, 0567ms total)
T0450 000:674 JLINK_WriteReg(R14, 0x20000001)  returns 0x00 (0000ms, 0567ms total)
T0450 000:674 JLINK_WriteReg(R15, 0x200000A0)  returns 0x00 (0000ms, 0567ms total)
T0450 000:674 JLINK_WriteReg(XPSR, 0x01000000)  returns 0x00 (0000ms, 0567ms total)
T0450 000:674 JLINK_WriteReg(MSP, 0x20000800)  returns 0x00 (0000ms, 0567ms total)
T0450 000:674 JLINK_WriteReg(PSP, 0x20000800)  returns 0x00 (0000ms, 0567ms total)
T0450 000:674 JLINK_WriteReg(CFBP, 0x00000000)  returns 0x00 (0000ms, 0567ms total)
T0450 000:674 JLINK_SetBPEx(Addr = 0x20000000, Type = 0xFFFFFFF2)  returns 0x00000003 (0000ms, 0567ms total)
T0450 000:674 JLINK_Go() (0002ms, 0569ms total)
T0450 000:676 JLINK_IsHalted()  returns FALSE (0001ms, 0570ms total)
T0450 000:756 JLINK_IsHalted() -- CPU_ReadMem(2 bytes @ 0x20000000)  returns TRUE (0004ms, 0573ms total)
T0450 000:760 JLINK_ReadReg(R15)  returns 0x20000000 (0000ms, 0569ms total)
T0450 000:760 JLINK_ClrBPEx(BPHandle = 0x00000003)  returns 0x00 (0000ms, 0569ms total)
T0450 000:761 JLINK_ReadReg(R0)  returns 0x00000000 (0000ms, 0569ms total)
T0450 000:761 JLINK_WriteReg(R0, 0x08000800)  returns 0x00 (0000ms, 0569ms total)
T0450 000:761 JLINK_WriteReg(R1, 0x00000800)  returns 0x00 (0000ms, 0569ms total)
T0450 000:761 JLINK_WriteReg(R2, 0x000000FF)  returns 0x00 (0000ms, 0569ms total)
T0450 000:761 JLINK_WriteReg(R3, 0x00000000)  returns 0x00 (0000ms, 0569ms total)
T0450 000:761 JLINK_WriteReg(R4, 0x00000000)  returns 0x00 (0000ms, 0569ms total)
T0450 000:761 JLINK_WriteReg(R5, 0x00000000)  returns 0x00 (0000ms, 0569ms total)
T0450 000:761 JLINK_WriteReg(R6, 0x00000000)  returns 0x00 (0000ms, 0569ms total)
T0450 000:761 JLINK_WriteReg(R7, 0x00000000)  returns 0x00 (0000ms, 0569ms total)
T0450 000:761 JLINK_WriteReg(R8, 0x00000000)  returns 0x00 (0000ms, 0569ms total)
T0450 000:761 JLINK_WriteReg(R9, 0x20000130)  returns 0x00 (0000ms, 0569ms total)
T0450 000:761 JLINK_WriteReg(R10, 0x00000000)  returns 0x00 (0000ms, 0569ms total)
T0450 000:761 JLINK_WriteReg(R11, 0x00000000)  returns 0x00 (0000ms, 0569ms total)
T0450 000:761 JLINK_WriteReg(R12, 0x00000000)  returns 0x00 (0000ms, 0569ms total)
T0450 000:761 JLINK_WriteReg(R13, 0x20000800)  returns 0x00 (0000ms, 0569ms total)
T0450 000:761 JLINK_WriteReg(R14, 0x20000001)  returns 0x00 (0000ms, 0569ms total)
T0450 000:761 JLINK_WriteReg(R15, 0x20000020)  returns 0x00 (0000ms, 0569ms total)
T0450 000:761 JLINK_WriteReg(XPSR, 0x01000000)  returns 0x00 (0000ms, 0569ms total)
T0450 000:761 JLINK_WriteReg(MSP, 0x20000800)  returns 0x00 (0000ms, 0569ms total)
T0450 000:761 JLINK_WriteReg(PSP, 0x20000800)  returns 0x00 (0000ms, 0569ms total)
T0450 000:761 JLINK_WriteReg(CFBP, 0x00000000)  returns 0x00 (0000ms, 0569ms total)
T0450 000:761 JLINK_SetBPEx(Addr = 0x20000000, Type = 0xFFFFFFF2)  returns 0x00000004 (0000ms, 0569ms total)
T0450 000:761 JLINK_Go() (0003ms, 0572ms total)
T0450 000:764 JLINK_IsHalted() -- CPU_ReadMem(2 bytes @ 0x20000000)  returns TRUE (0005ms, 0577ms total)
T0450 000:769 JLINK_ReadReg(R15)  returns 0x20000000 (0000ms, 0572ms total)
T0450 000:769 JLINK_ClrBPEx(BPHandle = 0x00000004)  returns 0x00 (0000ms, 0572ms total)
T0450 000:769 JLINK_ReadReg(R0)  returns 0x00000001 (0000ms, 0572ms total)
T0450 000:769 JLINK_WriteReg(R0, 0x08000800)  returns 0x00 (0000ms, 0572ms total)
T0450 000:769 JLINK_WriteReg(R1, 0x00000800)  returns 0x00 (0000ms, 0572ms total)
T0450 000:769 JLINK_WriteReg(R2, 0x000000FF)  returns 0x00 (0000ms, 0572ms total)
T0450 000:769 JLINK_WriteReg(R3, 0x00000000)  returns 0x00 (0000ms, 0572ms total)
T0450 000:769 JLINK_WriteReg(R4, 0x00000000)  returns 0x00 (0000ms, 0572ms total)
T0450 000:769 JLINK_WriteReg(R5, 0x00000000)  returns 0x00 (0000ms, 0572ms total)
T0450 000:769 JLINK_WriteReg(R6, 0x00000000)  returns 0x00 (0000ms, 0572ms total)
T0450 000:769 JLINK_WriteReg(R7, 0x00000000)  returns 0x00 (0000ms, 0572ms total)
T0450 000:769 JLINK_WriteReg(R8, 0x00000000)  returns 0x00 (0000ms, 0572ms total)
T0450 000:769 JLINK_WriteReg(R9, 0x20000130)  returns 0x00 (0000ms, 0572ms total)
T0450 000:769 JLINK_WriteReg(R10, 0x00000000)  returns 0x00 (0000ms, 0572ms total)
T0450 000:769 JLINK_WriteReg(R11, 0x00000000)  returns 0x00 (0000ms, 0572ms total)
T0450 000:769 JLINK_WriteReg(R12, 0x00000000)  returns 0x00 (0000ms, 0572ms total)
T0450 000:769 JLINK_WriteReg(R13, 0x20000800)  returns 0x00 (0000ms, 0572ms total)
T0450 000:769 JLINK_WriteReg(R14, 0x20000001)  returns 0x00 (0000ms, 0572ms total)
T0450 000:769 JLINK_WriteReg(R15, 0x200000A0)  returns 0x00 (0000ms, 0572ms total)
T0450 000:769 JLINK_WriteReg(XPSR, 0x01000000)  returns 0x00 (0000ms, 0572ms total)
T0450 000:769 JLINK_WriteReg(MSP, 0x20000800)  returns 0x00 (0000ms, 0572ms total)
T0450 000:769 JLINK_WriteReg(PSP, 0x20000800)  returns 0x00 (0000ms, 0572ms total)
T0450 000:769 JLINK_WriteReg(CFBP, 0x00000000)  returns 0x00 (0000ms, 0572ms total)
T0450 000:769 JLINK_SetBPEx(Addr = 0x20000000, Type = 0xFFFFFFF2)  returns 0x00000005 (0000ms, 0572ms total)
T0450 000:769 JLINK_Go() (0003ms, 0575ms total)
T0450 000:772 JLINK_IsHalted()  returns FALSE (0000ms, 0575ms total)
T0450 000:773 JLINK_IsHalted()  returns FALSE (0000ms, 0575ms total)
T0450 000:774 JLINK_IsHalted()  returns FALSE (0000ms, 0575ms total)
T0450 000:775 JLINK_IsHalted()  returns FALSE (0000ms, 0575ms total)
T0450 000:776 JLINK_IsHalted()  returns FALSE (0000ms, 0575ms total)
T0450 000:777 JLINK_IsHalted()  returns FALSE (0000ms, 0575ms total)
T0450 000:778 JLINK_IsHalted()  returns FALSE (0000ms, 0575ms total)
T0450 000:779 JLINK_IsHalted()  returns FALSE (0000ms, 0575ms total)
T0450 000:780 JLINK_IsHalted()  returns FALSE (0000ms, 0575ms total)
T0450 000:781 JLINK_IsHalted()  returns FALSE (0000ms, 0575ms total)
T0450 000:782 JLINK_IsHalted()  returns FALSE (0001ms, 0576ms total)
T0450 000:784 JLINK_IsHalted()  returns FALSE (0000ms, 0575ms total)
T0450 000:791 JLINK_IsHalted()  returns FALSE (0000ms, 0575ms total)
T0450 000:795 JLINK_IsHalted() -- CPU_ReadMem(2 bytes @ 0x20000000)  returns TRUE (0005ms, 0580ms total)
T0450 000:800 JLINK_ReadReg(R15)  returns 0x20000000 (0000ms, 0575ms total)
T0450 000:800 JLINK_ClrBPEx(BPHandle = 0x00000005)  returns 0x00 (0000ms, 0575ms total)
T0450 000:800 JLINK_ReadReg(R0)  returns 0x00000000 (0000ms, 0575ms total)
T0450 000:800 JLINK_WriteReg(R0, 0x08001000)  returns 0x00 (0000ms, 0575ms total)
T0450 000:800 JLINK_WriteReg(R1, 0x00000800)  returns 0x00 (0000ms, 0575ms total)
T0450 000:800 JLINK_WriteReg(R2, 0x000000FF)  returns 0x00 (0000ms, 0575ms total)
T0450 000:800 JLINK_WriteReg(R3, 0x00000000)  returns 0x00 (0000ms, 0575ms total)
T0450 000:800 JLINK_WriteReg(R4, 0x00000000)  returns 0x00 (0000ms, 0575ms total)
T0450 000:800 JLINK_WriteReg(R5, 0x00000000)  returns 0x00 (0000ms, 0575ms total)
T0450 000:800 JLINK_WriteReg(R6, 0x00000000)  returns 0x00 (0000ms, 0575ms total)
T0450 000:800 JLINK_WriteReg(R7, 0x00000000)  returns 0x00 (0000ms, 0575ms total)
T0450 000:800 JLINK_WriteReg(R8, 0x00000000)  returns 0x00 (0000ms, 0575ms total)
T0450 000:800 JLINK_WriteReg(R9, 0x20000130)  returns 0x00 (0000ms, 0575ms total)
T0450 000:800 JLINK_WriteReg(R10, 0x00000000)  returns 0x00 (0001ms, 0576ms total)
T0450 000:801 JLINK_WriteReg(R11, 0x00000000)  returns 0x00 (0000ms, 0576ms total)
T0450 000:801 JLINK_WriteReg(R12, 0x00000000)  returns 0x00 (0000ms, 0576ms total)
T0450 000:801 JLINK_WriteReg(R13, 0x20000800)  returns 0x00 (0000ms, 0576ms total)
T0450 000:801 JLINK_WriteReg(R14, 0x20000001)  returns 0x00 (0000ms, 0576ms total)
T0450 000:801 JLINK_WriteReg(R15, 0x20000020)  returns 0x00 (0000ms, 0576ms total)
T0450 000:801 JLINK_WriteReg(XPSR, 0x01000000)  returns 0x00 (0000ms, 0576ms total)
T0450 000:801 JLINK_WriteReg(MSP, 0x20000800)  returns 0x00 (0000ms, 0576ms total)
T0450 000:801 JLINK_WriteReg(PSP, 0x20000800)  returns 0x00 (0000ms, 0576ms total)
T0450 000:801 JLINK_WriteReg(CFBP, 0x00000000)  returns 0x00 (0000ms, 0576ms total)
T0450 000:801 JLINK_SetBPEx(Addr = 0x20000000, Type = 0xFFFFFFF2)  returns 0x00000006 (0000ms, 0576ms total)
T0450 000:801 JLINK_Go() (0002ms, 0578ms total)
T0450 000:803 JLINK_IsHalted() -- CPU_ReadMem(2 bytes @ 0x20000000)  returns TRUE (0005ms, 0583ms total)
T0450 000:808 JLINK_ReadReg(R15)  returns 0x20000000 (0000ms, 0578ms total)
T0450 000:808 JLINK_ClrBPEx(BPHandle = 0x00000006)  returns 0x00 (0000ms, 0578ms total)
T0450 000:808 JLINK_ReadReg(R0)  returns 0x00000001 (0000ms, 0578ms total)
T0450 000:808 JLINK_WriteReg(R0, 0x08001000)  returns 0x00 (0000ms, 0578ms total)
T0450 000:808 JLINK_WriteReg(R1, 0x00000800)  returns 0x00 (0000ms, 0578ms total)
T0450 000:808 JLINK_WriteReg(R2, 0x000000FF)  returns 0x00 (0000ms, 0578ms total)
T0450 000:808 JLINK_WriteReg(R3, 0x00000000)  returns 0x00 (0000ms, 0578ms total)
T0450 000:808 JLINK_WriteReg(R4, 0x00000000)  returns 0x00 (0000ms, 0578ms total)
T0450 000:808 JLINK_WriteReg(R5, 0x00000000)  returns 0x00 (0000ms, 0578ms total)
T0450 000:808 JLINK_WriteReg(R6, 0x00000000)  returns 0x00 (0000ms, 0578ms total)
T0450 000:808 JLINK_WriteReg(R7, 0x00000000)  returns 0x00 (0000ms, 0578ms total)
T0450 000:808 JLINK_WriteReg(R8, 0x00000000)  returns 0x00 (0000ms, 0578ms total)
T0450 000:808 JLINK_WriteReg(R9, 0x20000130)  returns 0x00 (0000ms, 0578ms total)
T0450 000:808 JLINK_WriteReg(R10, 0x00000000)  returns 0x00 (0000ms, 0578ms total)
T0450 000:808 JLINK_WriteReg(R11, 0x00000000)  returns 0x00 (0000ms, 0578ms total)
T0450 000:808 JLINK_WriteReg(R12, 0x00000000)  returns 0x00 (0000ms, 0578ms total)
T0450 000:808 JLINK_WriteReg(R13, 0x20000800)  returns 0x00 (0000ms, 0578ms total)
T0450 000:808 JLINK_WriteReg(R14, 0x20000001)  returns 0x00 (0000ms, 0578ms total)
T0450 000:808 JLINK_WriteReg(R15, 0x200000A0)  returns 0x00 (0000ms, 0578ms total)
T0450 000:808 JLINK_WriteReg(XPSR, 0x01000000)  returns 0x00 (0000ms, 0578ms total)
T0450 000:808 JLINK_WriteReg(MSP, 0x20000800)  returns 0x00 (0000ms, 0578ms total)
T0450 000:808 JLINK_WriteReg(PSP, 0x20000800)  returns 0x00 (0000ms, 0578ms total)
T0450 000:808 JLINK_WriteReg(CFBP, 0x00000000)  returns 0x00 (0000ms, 0578ms total)
T0450 000:808 JLINK_SetBPEx(Addr = 0x20000000, Type = 0xFFFFFFF2)  returns 0x00000007 (0000ms, 0578ms total)
T0450 000:808 JLINK_Go() (0002ms, 0580ms total)
T0450 000:810 JLINK_IsHalted()  returns FALSE (0001ms, 0581ms total)
T0450 000:814 JLINK_IsHalted()  returns FALSE (0001ms, 0581ms total)
T0450 000:816 JLINK_IsHalted()  returns FALSE (0000ms, 0580ms total)
T0450 000:817 JLINK_IsHalted()  returns FALSE (0000ms, 0580ms total)
T0450 000:823 JLINK_IsHalted()  returns FALSE (0000ms, 0580ms total)
T0450 000:824 JLINK_IsHalted()  returns FALSE (0000ms, 0580ms total)
T0450 000:825 JLINK_IsHalted()  returns FALSE (0000ms, 0580ms total)
T0450 000:826 JLINK_IsHalted()  returns FALSE (0000ms, 0580ms total)
T0450 000:827 JLINK_IsHalted()  returns FALSE (0000ms, 0580ms total)
T0450 000:828 JLINK_IsHalted()  returns FALSE (0000ms, 0580ms total)
T0450 000:829 JLINK_IsHalted()  returns FALSE (0000ms, 0580ms total)
T0450 000:830 JLINK_IsHalted()  returns FALSE (0000ms, 0580ms total)
T0450 000:831 JLINK_IsHalted()  returns FALSE (0000ms, 0580ms total)
T0450 000:832 JLINK_IsHalted() -- CPU_ReadMem(2 bytes @ 0x20000000)  returns TRUE (0004ms, 0584ms total)
T0450 000:836 JLINK_ReadReg(R15)  returns 0x20000000 (0001ms, 0581ms total)
T0450 000:837 JLINK_ClrBPEx(BPHandle = 0x00000007)  returns 0x00 (0000ms, 0581ms total)
T0450 000:837 JLINK_ReadReg(R0)  returns 0x00000000 (0000ms, 0581ms total)
T0450 000:837 JLINK_WriteReg(R0, 0x08001800)  returns 0x00 (0000ms, 0581ms total)
T0450 000:837 JLINK_WriteReg(R1, 0x00000800)  returns 0x00 (0000ms, 0581ms total)
T0450 000:837 JLINK_WriteReg(R2, 0x000000FF)  returns 0x00 (0000ms, 0581ms total)
T0450 000:837 JLINK_WriteReg(R3, 0x00000000)  returns 0x00 (0000ms, 0581ms total)
T0450 000:837 JLINK_WriteReg(R4, 0x00000000)  returns 0x00 (0000ms, 0581ms total)
T0450 000:837 JLINK_WriteReg(R5, 0x00000000)  returns 0x00 (0000ms, 0581ms total)
T0450 000:837 JLINK_WriteReg(R6, 0x00000000)  returns 0x00 (0000ms, 0581ms total)
T0450 000:837 JLINK_WriteReg(R7, 0x00000000)  returns 0x00 (0000ms, 0581ms total)
T0450 000:837 JLINK_WriteReg(R8, 0x00000000)  returns 0x00 (0000ms, 0581ms total)
T0450 000:837 JLINK_WriteReg(R9, 0x20000130)  returns 0x00 (0000ms, 0581ms total)
T0450 000:837 JLINK_WriteReg(R10, 0x00000000)  returns 0x00 (0000ms, 0581ms total)
T0450 000:837 JLINK_WriteReg(R11, 0x00000000)  returns 0x00 (0000ms, 0581ms total)
T0450 000:837 JLINK_WriteReg(R12, 0x00000000)  returns 0x00 (0000ms, 0581ms total)
T0450 000:837 JLINK_WriteReg(R13, 0x20000800)  returns 0x00 (0000ms, 0581ms total)
T0450 000:837 JLINK_WriteReg(R14, 0x20000001)  returns 0x00 (0000ms, 0581ms total)
T0450 000:837 JLINK_WriteReg(R15, 0x20000020)  returns 0x00 (0000ms, 0581ms total)
T0450 000:837 JLINK_WriteReg(XPSR, 0x01000000)  returns 0x00 (0000ms, 0581ms total)
T0450 000:837 JLINK_WriteReg(MSP, 0x20000800)  returns 0x00 (0000ms, 0581ms total)
T0450 000:837 JLINK_WriteReg(PSP, 0x20000800)  returns 0x00 (0000ms, 0581ms total)
T0450 000:837 JLINK_WriteReg(CFBP, 0x00000000)  returns 0x00 (0000ms, 0581ms total)
T0450 000:837 JLINK_SetBPEx(Addr = 0x20000000, Type = 0xFFFFFFF2)  returns 0x00000008 (0000ms, 0581ms total)
T0450 000:837 JLINK_Go() (0003ms, 0584ms total)
T0450 000:840 JLINK_IsHalted() -- CPU_ReadMem(2 bytes @ 0x20000000)  returns TRUE (0004ms, 0588ms total)
T0450 000:844 JLINK_ReadReg(R15)  returns 0x20000000 (0001ms, 0585ms total)
T0450 000:845 JLINK_ClrBPEx(BPHandle = 0x00000008)  returns 0x00 (0000ms, 0585ms total)
T0450 000:845 JLINK_ReadReg(R0)  returns 0x00000001 (0000ms, 0585ms total)
T0450 000:845 JLINK_WriteReg(R0, 0x08001800)  returns 0x00 (0000ms, 0585ms total)
T0450 000:845 JLINK_WriteReg(R1, 0x00000800)  returns 0x00 (0000ms, 0585ms total)
T0450 000:845 JLINK_WriteReg(R2, 0x000000FF)  returns 0x00 (0000ms, 0585ms total)
T0450 000:845 JLINK_WriteReg(R3, 0x00000000)  returns 0x00 (0000ms, 0585ms total)
T0450 000:845 JLINK_WriteReg(R4, 0x00000000)  returns 0x00 (0000ms, 0585ms total)
T0450 000:845 JLINK_WriteReg(R5, 0x00000000)  returns 0x00 (0000ms, 0585ms total)
T0450 000:845 JLINK_WriteReg(R6, 0x00000000)  returns 0x00 (0000ms, 0585ms total)
T0450 000:845 JLINK_WriteReg(R7, 0x00000000)  returns 0x00 (0000ms, 0585ms total)
T0450 000:845 JLINK_WriteReg(R8, 0x00000000)  returns 0x00 (0000ms, 0585ms total)
T0450 000:845 JLINK_WriteReg(R9, 0x20000130)  returns 0x00 (0000ms, 0585ms total)
T0450 000:845 JLINK_WriteReg(R10, 0x00000000)  returns 0x00 (0000ms, 0585ms total)
T0450 000:845 JLINK_WriteReg(R11, 0x00000000)  returns 0x00 (0000ms, 0585ms total)
T0450 000:845 JLINK_WriteReg(R12, 0x00000000)  returns 0x00 (0000ms, 0585ms total)
T0450 000:845 JLINK_WriteReg(R13, 0x20000800)  returns 0x00 (0000ms, 0585ms total)
T0450 000:845 JLINK_WriteReg(R14, 0x20000001)  returns 0x00 (0000ms, 0585ms total)
T0450 000:845 JLINK_WriteReg(R15, 0x200000A0)  returns 0x00 (0000ms, 0585ms total)
T0450 000:845 JLINK_WriteReg(XPSR, 0x01000000)  returns 0x00 (0000ms, 0585ms total)
T0450 000:845 JLINK_WriteReg(MSP, 0x20000800)  returns 0x00 (0000ms, 0585ms total)
T0450 000:845 JLINK_WriteReg(PSP, 0x20000800)  returns 0x00 (0000ms, 0585ms total)
T0450 000:845 JLINK_WriteReg(CFBP, 0x00000000)  returns 0x00 (0000ms, 0585ms total)
T0450 000:845 JLINK_SetBPEx(Addr = 0x20000000, Type = 0xFFFFFFF2)  returns 0x00000009 (0000ms, 0585ms total)
T0450 000:845 JLINK_Go() (0002ms, 0587ms total)
T0450 000:847 JLINK_IsHalted()  returns FALSE (0001ms, 0588ms total)
T0450 000:860 JLINK_IsHalted()  returns FALSE (0000ms, 0587ms total)
T0450 000:861 JLINK_IsHalted()  returns FALSE (0000ms, 0587ms total)
T0450 000:862 JLINK_IsHalted()  returns FALSE (0000ms, 0587ms total)
T0450 000:863 JLINK_IsHalted()  returns FALSE (0000ms, 0587ms total)
T0450 000:864 JLINK_IsHalted()  returns FALSE (0000ms, 0587ms total)
T0450 000:865 JLINK_IsHalted()  returns FALSE (0000ms, 0587ms total)
T0450 000:866 JLINK_IsHalted()  returns FALSE (0000ms, 0587ms total)
T0450 000:867 JLINK_IsHalted()  returns FALSE (0001ms, 0588ms total)
T0450 000:869 JLINK_IsHalted() -- CPU_ReadMem(2 bytes @ 0x20000000)  returns TRUE (0005ms, 0592ms total)
T0450 000:874 JLINK_ReadReg(R15)  returns 0x20000000 (0000ms, 0587ms total)
T0450 000:874 JLINK_ClrBPEx(BPHandle = 0x00000009)  returns 0x00 (0000ms, 0587ms total)
T0450 000:874 JLINK_ReadReg(R0)  returns 0x00000000 (0000ms, 0587ms total)
T0450 000:874 JLINK_WriteReg(R0, 0x08002000)  returns 0x00 (0000ms, 0587ms total)
T0450 000:874 JLINK_WriteReg(R1, 0x00000800)  returns 0x00 (0000ms, 0587ms total)
T0450 000:874 JLINK_WriteReg(R2, 0x000000FF)  returns 0x00 (0000ms, 0587ms total)
T0450 000:874 JLINK_WriteReg(R3, 0x00000000)  returns 0x00 (0000ms, 0587ms total)
T0450 000:874 JLINK_WriteReg(R4, 0x00000000)  returns 0x00 (0000ms, 0587ms total)
T0450 000:874 JLINK_WriteReg(R5, 0x00000000)  returns 0x00 (0000ms, 0587ms total)
T0450 000:874 JLINK_WriteReg(R6, 0x00000000)  returns 0x00 (0000ms, 0587ms total)
T0450 000:874 JLINK_WriteReg(R7, 0x00000000)  returns 0x00 (0000ms, 0587ms total)
T0450 000:874 JLINK_WriteReg(R8, 0x00000000)  returns 0x00 (0000ms, 0587ms total)
T0450 000:874 JLINK_WriteReg(R9, 0x20000130)  returns 0x00 (0000ms, 0587ms total)
T0450 000:874 JLINK_WriteReg(R10, 0x00000000)  returns 0x00 (0000ms, 0587ms total)
T0450 000:874 JLINK_WriteReg(R11, 0x00000000)  returns 0x00 (0000ms, 0587ms total)
T0450 000:874 JLINK_WriteReg(R12, 0x00000000)  returns 0x00 (0000ms, 0587ms total)
T0450 000:874 JLINK_WriteReg(R13, 0x20000800)  returns 0x00 (0000ms, 0587ms total)
T0450 000:874 JLINK_WriteReg(R14, 0x20000001)  returns 0x00 (0000ms, 0587ms total)
T0450 000:874 JLINK_WriteReg(R15, 0x20000020)  returns 0x00 (0000ms, 0587ms total)
T0450 000:874 JLINK_WriteReg(XPSR, 0x01000000)  returns 0x00 (0000ms, 0587ms total)
T0450 000:874 JLINK_WriteReg(MSP, 0x20000800)  returns 0x00 (0000ms, 0587ms total)
T0450 000:875 JLINK_WriteReg(PSP, 0x20000800)  returns 0x00 (0000ms, 0588ms total)
T0450 000:875 JLINK_WriteReg(CFBP, 0x00000000)  returns 0x00 (0000ms, 0588ms total)
T0450 000:875 JLINK_SetBPEx(Addr = 0x20000000, Type = 0xFFFFFFF2)  returns 0x0000000A (0000ms, 0588ms total)
T0450 000:875 JLINK_Go() (0002ms, 0590ms total)
T0450 000:877 JLINK_IsHalted() -- CPU_ReadMem(2 bytes @ 0x20000000)  returns TRUE (0004ms, 0594ms total)
T0450 000:881 JLINK_ReadReg(R15)  returns 0x20000000 (0000ms, 0590ms total)
T0450 000:881 JLINK_ClrBPEx(BPHandle = 0x0000000A)  returns 0x00 (0000ms, 0590ms total)
T0450 000:881 JLINK_ReadReg(R0)  returns 0x00000001 (0001ms, 0591ms total)
T0450 000:882 JLINK_WriteReg(R0, 0x08002000)  returns 0x00 (0000ms, 0591ms total)
T0450 000:882 JLINK_WriteReg(R1, 0x00000800)  returns 0x00 (0000ms, 0591ms total)
T0450 000:882 JLINK_WriteReg(R2, 0x000000FF)  returns 0x00 (0000ms, 0591ms total)
T0450 000:882 JLINK_WriteReg(R3, 0x00000000)  returns 0x00 (0000ms, 0591ms total)
T0450 000:882 JLINK_WriteReg(R4, 0x00000000)  returns 0x00 (0000ms, 0591ms total)
T0450 000:882 JLINK_WriteReg(R5, 0x00000000)  returns 0x00 (0000ms, 0591ms total)
T0450 000:882 JLINK_WriteReg(R6, 0x00000000)  returns 0x00 (0000ms, 0591ms total)
T0450 000:882 JLINK_WriteReg(R7, 0x00000000)  returns 0x00 (0000ms, 0591ms total)
T0450 000:882 JLINK_WriteReg(R8, 0x00000000)  returns 0x00 (0000ms, 0591ms total)
T0450 000:882 JLINK_WriteReg(R9, 0x20000130)  returns 0x00 (0000ms, 0591ms total)
T0450 000:882 JLINK_WriteReg(R10, 0x00000000)  returns 0x00 (0000ms, 0591ms total)
T0450 000:882 JLINK_WriteReg(R11, 0x00000000)  returns 0x00 (0000ms, 0591ms total)
T0450 000:882 JLINK_WriteReg(R12, 0x00000000)  returns 0x00 (0000ms, 0591ms total)
T0450 000:882 JLINK_WriteReg(R13, 0x20000800)  returns 0x00 (0000ms, 0591ms total)
T0450 000:882 JLINK_WriteReg(R14, 0x20000001)  returns 0x00 (0000ms, 0591ms total)
T0450 000:882 JLINK_WriteReg(R15, 0x200000A0)  returns 0x00 (0000ms, 0591ms total)
T0450 000:882 JLINK_WriteReg(XPSR, 0x01000000)  returns 0x00 (0001ms, 0592ms total)
T0450 000:883 JLINK_WriteReg(MSP, 0x20000800)  returns 0x00 (0000ms, 0592ms total)
T0450 000:883 JLINK_WriteReg(PSP, 0x20000800)  returns 0x00 (0000ms, 0592ms total)
T0450 000:883 JLINK_WriteReg(CFBP, 0x00000000)  returns 0x00 (0000ms, 0592ms total)
T0450 000:883 JLINK_SetBPEx(Addr = 0x20000000, Type = 0xFFFFFFF2)  returns 0x0000000B (0000ms, 0592ms total)
T0450 000:883 JLINK_Go() (0002ms, 0594ms total)
T0450 000:885 JLINK_IsHalted()  returns FALSE (0001ms, 0595ms total)
T0450 000:887 JLINK_IsHalted()  returns FALSE (0000ms, 0594ms total)
T0450 000:888 JLINK_IsHalted()  returns FALSE (0000ms, 0594ms total)
T0450 000:889 JLINK_IsHalted()  returns FALSE (0000ms, 0594ms total)
T0450 000:890 JLINK_IsHalted()  returns FALSE (0000ms, 0594ms total)
T0450 000:891 JLINK_IsHalted()  returns FALSE (0000ms, 0594ms total)
T0450 000:892 JLINK_IsHalted()  returns FALSE (0000ms, 0594ms total)
T0450 000:893 JLINK_IsHalted()  returns FALSE (0000ms, 0594ms total)
T0450 000:894 JLINK_IsHalted()  returns FALSE (0000ms, 0594ms total)
T0450 000:895 JLINK_IsHalted()  returns FALSE (0000ms, 0594ms total)
T0450 000:896 JLINK_IsHalted()  returns FALSE (0000ms, 0594ms total)
T0450 000:897 JLINK_IsHalted()  returns FALSE (0000ms, 0594ms total)
T0450 000:898 JLINK_IsHalted()  returns FALSE (0001ms, 0595ms total)
T0450 000:902 JLINK_IsHalted()  returns FALSE (0000ms, 0594ms total)
T0450 000:903 JLINK_IsHalted()  returns FALSE (0000ms, 0594ms total)
T0450 000:904 JLINK_IsHalted()  returns FALSE (0000ms, 0594ms total)
T0450 000:905 JLINK_IsHalted()  returns FALSE (0000ms, 0594ms total)
T0450 000:906 JLINK_IsHalted()  returns FALSE (0000ms, 0594ms total)
T0450 000:907 JLINK_IsHalted() -- CPU_ReadMem(2 bytes @ 0x20000000)  returns TRUE (0004ms, 0598ms total)
T0450 000:911 JLINK_ReadReg(R15)  returns 0x20000000 (0000ms, 0594ms total)
T0450 000:912 JLINK_ClrBPEx(BPHandle = 0x0000000B)  returns 0x00 (0000ms, 0595ms total)
T0450 000:912 JLINK_ReadReg(R0)  returns 0x00000000 (0000ms, 0595ms total)
T0450 000:912 JLINK_WriteReg(R0, 0x08002800)  returns 0x00 (0000ms, 0595ms total)
T0450 000:912 JLINK_WriteReg(R1, 0x00000800)  returns 0x00 (0000ms, 0595ms total)
T0450 000:912 JLINK_WriteReg(R2, 0x000000FF)  returns 0x00 (0000ms, 0595ms total)
T0450 000:912 JLINK_WriteReg(R3, 0x00000000)  returns 0x00 (0000ms, 0595ms total)
T0450 000:912 JLINK_WriteReg(R4, 0x00000000)  returns 0x00 (0000ms, 0595ms total)
T0450 000:912 JLINK_WriteReg(R5, 0x00000000)  returns 0x00 (0000ms, 0595ms total)
T0450 000:912 JLINK_WriteReg(R6, 0x00000000)  returns 0x00 (0000ms, 0595ms total)
T0450 000:912 JLINK_WriteReg(R7, 0x00000000)  returns 0x00 (0000ms, 0595ms total)
T0450 000:912 JLINK_WriteReg(R8, 0x00000000)  returns 0x00 (0000ms, 0595ms total)
T0450 000:912 JLINK_WriteReg(R9, 0x20000130)  returns 0x00 (0000ms, 0595ms total)
T0450 000:912 JLINK_WriteReg(R10, 0x00000000)  returns 0x00 (0000ms, 0595ms total)
T0450 000:912 JLINK_WriteReg(R11, 0x00000000)  returns 0x00 (0000ms, 0595ms total)
T0450 000:912 JLINK_WriteReg(R12, 0x00000000)  returns 0x00 (0000ms, 0595ms total)
T0450 000:912 JLINK_WriteReg(R13, 0x20000800)  returns 0x00 (0000ms, 0595ms total)
T0450 000:912 JLINK_WriteReg(R14, 0x20000001)  returns 0x00 (0000ms, 0595ms total)
T0450 000:912 JLINK_WriteReg(R15, 0x20000020)  returns 0x00 (0000ms, 0595ms total)
T0450 000:912 JLINK_WriteReg(XPSR, 0x01000000)  returns 0x00 (0001ms, 0596ms total)
T0450 000:913 JLINK_WriteReg(MSP, 0x20000800)  returns 0x00 (0000ms, 0596ms total)
T0450 000:913 JLINK_WriteReg(PSP, 0x20000800)  returns 0x00 (0000ms, 0596ms total)
T0450 000:913 JLINK_WriteReg(CFBP, 0x00000000)  returns 0x00 (0000ms, 0596ms total)
T0450 000:913 JLINK_SetBPEx(Addr = 0x20000000, Type = 0xFFFFFFF2)  returns 0x0000000C (0000ms, 0596ms total)
T0450 000:913 JLINK_Go() (0002ms, 0598ms total)
T0450 000:915 JLINK_IsHalted() -- CPU_ReadMem(2 bytes @ 0x20000000)  returns TRUE (0005ms, 0603ms total)
T0450 000:920 JLINK_ReadReg(R15)  returns 0x20000000 (0000ms, 0598ms total)
T0450 000:920 JLINK_ClrBPEx(BPHandle = 0x0000000C)  returns 0x00 (0000ms, 0598ms total)
T0450 000:920 JLINK_ReadReg(R0)  returns 0x00000001 (0000ms, 0598ms total)
T0450 000:920 JLINK_WriteReg(R0, 0x08002800)  returns 0x00 (0000ms, 0598ms total)
T0450 000:920 JLINK_WriteReg(R1, 0x00000800)  returns 0x00 (0000ms, 0598ms total)
T0450 000:920 JLINK_WriteReg(R2, 0x000000FF)  returns 0x00 (0000ms, 0598ms total)
T0450 000:920 JLINK_WriteReg(R3, 0x00000000)  returns 0x00 (0000ms, 0598ms total)
T0450 000:920 JLINK_WriteReg(R4, 0x00000000)  returns 0x00 (0000ms, 0598ms total)
T0450 000:920 JLINK_WriteReg(R5, 0x00000000)  returns 0x00 (0000ms, 0598ms total)
T0450 000:920 JLINK_WriteReg(R6, 0x00000000)  returns 0x00 (0000ms, 0598ms total)
T0450 000:920 JLINK_WriteReg(R7, 0x00000000)  returns 0x00 (0000ms, 0598ms total)
T0450 000:920 JLINK_WriteReg(R8, 0x00000000)  returns 0x00 (0000ms, 0598ms total)
T0450 000:920 JLINK_WriteReg(R9, 0x20000130)  returns 0x00 (0000ms, 0598ms total)
T0450 000:920 JLINK_WriteReg(R10, 0x00000000)  returns 0x00 (0000ms, 0598ms total)
T0450 000:920 JLINK_WriteReg(R11, 0x00000000)  returns 0x00 (0000ms, 0598ms total)
T0450 000:920 JLINK_WriteReg(R12, 0x00000000)  returns 0x00 (0000ms, 0598ms total)
T0450 000:920 JLINK_WriteReg(R13, 0x20000800)  returns 0x00 (0000ms, 0598ms total)
T0450 000:920 JLINK_WriteReg(R14, 0x20000001)  returns 0x00 (0000ms, 0598ms total)
T0450 000:920 JLINK_WriteReg(R15, 0x200000A0)  returns 0x00 (0000ms, 0598ms total)
T0450 000:920 JLINK_WriteReg(XPSR, 0x01000000)  returns 0x00 (0000ms, 0598ms total)
T0450 000:920 JLINK_WriteReg(MSP, 0x20000800)  returns 0x00 (0000ms, 0598ms total)
T0450 000:920 JLINK_WriteReg(PSP, 0x20000800)  returns 0x00 (0000ms, 0598ms total)
T0450 000:920 JLINK_WriteReg(CFBP, 0x00000000)  returns 0x00 (0000ms, 0598ms total)
T0450 000:920 JLINK_SetBPEx(Addr = 0x20000000, Type = 0xFFFFFFF2)  returns 0x0000000D (0000ms, 0598ms total)
T0450 000:920 JLINK_Go() (0002ms, 0600ms total)
T0450 000:922 JLINK_IsHalted()  returns FALSE (0001ms, 0601ms total)
T0450 000:926 JLINK_IsHalted()  returns FALSE (0000ms, 0600ms total)
T0450 000:927 JLINK_IsHalted()  returns FALSE (0000ms, 0600ms total)
T0450 000:928 JLINK_IsHalted()  returns FALSE (0001ms, 0601ms total)
T0450 000:930 JLINK_IsHalted()  returns FALSE (0000ms, 0600ms total)
T0450 000:931 JLINK_IsHalted()  returns FALSE (0000ms, 0600ms total)
T0450 000:932 JLINK_IsHalted()  returns FALSE (0001ms, 0601ms total)
T0450 000:934 JLINK_IsHalted()  returns FALSE (0000ms, 0600ms total)
T0450 000:935 JLINK_IsHalted()  returns FALSE (0000ms, 0600ms total)
T0450 000:936 JLINK_IsHalted()  returns FALSE (0000ms, 0600ms total)
T0450 000:937 JLINK_IsHalted()  returns FALSE (0000ms, 0600ms total)
T0450 000:938 JLINK_IsHalted()  returns FALSE (0001ms, 0601ms total)
T0450 000:940 JLINK_IsHalted()  returns FALSE (0000ms, 0600ms total)
T0450 000:943 JLINK_IsHalted()  returns FALSE (0000ms, 0600ms total)
T0450 000:944 JLINK_IsHalted()  returns FALSE (0000ms, 0600ms total)
T0450 000:952 JLINK_IsHalted() -- CPU_ReadMem(2 bytes @ 0x20000000)  returns TRUE (0005ms, 0605ms total)
T0450 000:957 JLINK_ReadReg(R15)  returns 0x20000000 (0000ms, 0600ms total)
T0450 000:957 JLINK_ClrBPEx(BPHandle = 0x0000000D)  returns 0x00 (0000ms, 0600ms total)
T0450 000:957 JLINK_ReadReg(R0)  returns 0x00000000 (0000ms, 0600ms total)
T0450 000:957 JLINK_WriteReg(R0, 0x08003000)  returns 0x00 (0000ms, 0600ms total)
T0450 000:957 JLINK_WriteReg(R1, 0x00000800)  returns 0x00 (0000ms, 0600ms total)
T0450 000:957 JLINK_WriteReg(R2, 0x000000FF)  returns 0x00 (0000ms, 0600ms total)
T0450 000:957 JLINK_WriteReg(R3, 0x00000000)  returns 0x00 (0000ms, 0600ms total)
T0450 000:957 JLINK_WriteReg(R4, 0x00000000)  returns 0x00 (0000ms, 0600ms total)
T0450 000:957 JLINK_WriteReg(R5, 0x00000000)  returns 0x00 (0000ms, 0600ms total)
T0450 000:957 JLINK_WriteReg(R6, 0x00000000)  returns 0x00 (0000ms, 0600ms total)
T0450 000:957 JLINK_WriteReg(R7, 0x00000000)  returns 0x00 (0000ms, 0600ms total)
T0450 000:957 JLINK_WriteReg(R8, 0x00000000)  returns 0x00 (0000ms, 0600ms total)
T0450 000:957 JLINK_WriteReg(R9, 0x20000130)  returns 0x00 (0000ms, 0600ms total)
T0450 000:957 JLINK_WriteReg(R10, 0x00000000)  returns 0x00 (0001ms, 0601ms total)
T0450 000:958 JLINK_WriteReg(R11, 0x00000000)  returns 0x00 (0000ms, 0601ms total)
T0450 000:958 JLINK_WriteReg(R12, 0x00000000)  returns 0x00 (0000ms, 0601ms total)
T0450 000:958 JLINK_WriteReg(R13, 0x20000800)  returns 0x00 (0000ms, 0601ms total)
T0450 000:958 JLINK_WriteReg(R14, 0x20000001)  returns 0x00 (0000ms, 0601ms total)
T0450 000:958 JLINK_WriteReg(R15, 0x20000020)  returns 0x00 (0000ms, 0601ms total)
T0450 000:958 JLINK_WriteReg(XPSR, 0x01000000)  returns 0x00 (0000ms, 0601ms total)
T0450 000:958 JLINK_WriteReg(MSP, 0x20000800)  returns 0x00 (0000ms, 0601ms total)
T0450 000:958 JLINK_WriteReg(PSP, 0x20000800)  returns 0x00 (0000ms, 0601ms total)
T0450 000:958 JLINK_WriteReg(CFBP, 0x00000000)  returns 0x00 (0000ms, 0601ms total)
T0450 000:958 JLINK_SetBPEx(Addr = 0x20000000, Type = 0xFFFFFFF2)  returns 0x0000000E (0000ms, 0601ms total)
T0450 000:958 JLINK_Go() (0002ms, 0603ms total)
T0450 000:960 JLINK_IsHalted() -- CPU_ReadMem(2 bytes @ 0x20000000)  returns TRUE (0005ms, 0608ms total)
T0450 000:965 JLINK_ReadReg(R15)  returns 0x20000000 (0000ms, 0603ms total)
T0450 000:965 JLINK_ClrBPEx(BPHandle = 0x0000000E)  returns 0x00 (0000ms, 0603ms total)
T0450 000:965 JLINK_ReadReg(R0)  returns 0x00000001 (0000ms, 0603ms total)
T0450 000:965 JLINK_WriteReg(R0, 0x08003000)  returns 0x00 (0000ms, 0603ms total)
T0450 000:965 JLINK_WriteReg(R1, 0x00000800)  returns 0x00 (0000ms, 0603ms total)
T0450 000:965 JLINK_WriteReg(R2, 0x000000FF)  returns 0x00 (0000ms, 0603ms total)
T0450 000:966 JLINK_WriteReg(R3, 0x00000000)  returns 0x00 (0000ms, 0604ms total)
T0450 000:966 JLINK_WriteReg(R4, 0x00000000)  returns 0x00 (0000ms, 0604ms total)
T0450 000:966 JLINK_WriteReg(R5, 0x00000000)  returns 0x00 (0000ms, 0604ms total)
T0450 000:966 JLINK_WriteReg(R6, 0x00000000)  returns 0x00 (0000ms, 0604ms total)
T0450 000:966 JLINK_WriteReg(R7, 0x00000000)  returns 0x00 (0000ms, 0604ms total)
T0450 000:966 JLINK_WriteReg(R8, 0x00000000)  returns 0x00 (0000ms, 0604ms total)
T0450 000:966 JLINK_WriteReg(R9, 0x20000130)  returns 0x00 (0000ms, 0604ms total)
T0450 000:966 JLINK_WriteReg(R10, 0x00000000)  returns 0x00 (0000ms, 0604ms total)
T0450 000:966 JLINK_WriteReg(R11, 0x00000000)  returns 0x00 (0000ms, 0604ms total)
T0450 000:966 JLINK_WriteReg(R12, 0x00000000)  returns 0x00 (0000ms, 0604ms total)
T0450 000:966 JLINK_WriteReg(R13, 0x20000800)  returns 0x00 (0000ms, 0604ms total)
T0450 000:966 JLINK_WriteReg(R14, 0x20000001)  returns 0x00 (0000ms, 0604ms total)
T0450 000:966 JLINK_WriteReg(R15, 0x200000A0)  returns 0x00 (0000ms, 0604ms total)
T0450 000:966 JLINK_WriteReg(XPSR, 0x01000000)  returns 0x00 (0000ms, 0604ms total)
T0450 000:966 JLINK_WriteReg(MSP, 0x20000800)  returns 0x00 (0000ms, 0604ms total)
T0450 000:966 JLINK_WriteReg(PSP, 0x20000800)  returns 0x00 (0000ms, 0604ms total)
T0450 000:966 JLINK_WriteReg(CFBP, 0x00000000)  returns 0x00 (0000ms, 0604ms total)
T0450 000:966 JLINK_SetBPEx(Addr = 0x20000000, Type = 0xFFFFFFF2)  returns 0x0000000F (0000ms, 0604ms total)
T0450 000:966 JLINK_Go() (0002ms, 0606ms total)
T0450 000:968 JLINK_IsHalted()  returns FALSE (0001ms, 0607ms total)
T0450 000:970 JLINK_IsHalted()  returns FALSE (0000ms, 0606ms total)
T0450 000:971 JLINK_IsHalted()  returns FALSE (0000ms, 0606ms total)
T0450 000:972 JLINK_IsHalted()  returns FALSE (0000ms, 0606ms total)
T0450 000:973 JLINK_IsHalted()  returns FALSE (0000ms, 0606ms total)
T0450 000:974 JLINK_IsHalted()  returns FALSE (0000ms, 0606ms total)
T0450 000:975 JLINK_IsHalted()  returns FALSE (0000ms, 0606ms total)
T0450 000:976 JLINK_IsHalted()  returns FALSE (0000ms, 0606ms total)
T0450 000:978 JLINK_IsHalted()  returns FALSE (0000ms, 0606ms total)
T0450 000:979 JLINK_IsHalted()  returns FALSE (0000ms, 0606ms total)
T0450 000:980 JLINK_IsHalted()  returns FALSE (0000ms, 0606ms total)
T0450 000:981 JLINK_IsHalted()  returns FALSE (0000ms, 0606ms total)
T0450 000:982 JLINK_IsHalted()  returns FALSE (0001ms, 0607ms total)
T0450 000:984 JLINK_IsHalted()  returns FALSE (0000ms, 0606ms total)
T0450 000:992 JLINK_IsHalted() -- CPU_ReadMem(2 bytes @ 0x20000000)  returns TRUE (0004ms, 0610ms total)
T0450 000:996 JLINK_ReadReg(R15)  returns 0x20000000 (0000ms, 0606ms total)
T0450 000:996 JLINK_ClrBPEx(BPHandle = 0x0000000F)  returns 0x00 (0001ms, 0607ms total)
T0450 000:997 JLINK_ReadReg(R0)  returns 0x00000000 (0000ms, 0607ms total)
T0450 000:997 JLINK_WriteReg(R0, 0x08003800)  returns 0x00 (0000ms, 0607ms total)
T0450 000:997 JLINK_WriteReg(R1, 0x00000800)  returns 0x00 (0000ms, 0607ms total)
T0450 000:997 JLINK_WriteReg(R2, 0x000000FF)  returns 0x00 (0000ms, 0607ms total)
T0450 000:997 JLINK_WriteReg(R3, 0x00000000)  returns 0x00 (0000ms, 0607ms total)
T0450 000:997 JLINK_WriteReg(R4, 0x00000000)  returns 0x00 (0000ms, 0607ms total)
T0450 000:997 JLINK_WriteReg(R5, 0x00000000)  returns 0x00 (0000ms, 0607ms total)
T0450 000:997 JLINK_WriteReg(R6, 0x00000000)  returns 0x00 (0000ms, 0607ms total)
T0450 000:997 JLINK_WriteReg(R7, 0x00000000)  returns 0x00 (0000ms, 0607ms total)
T0450 000:997 JLINK_WriteReg(R8, 0x00000000)  returns 0x00 (0000ms, 0607ms total)
T0450 000:997 JLINK_WriteReg(R9, 0x20000130)  returns 0x00 (0000ms, 0607ms total)
T0450 000:997 JLINK_WriteReg(R10, 0x00000000)  returns 0x00 (0000ms, 0607ms total)
T0450 000:997 JLINK_WriteReg(R11, 0x00000000)  returns 0x00 (0000ms, 0607ms total)
T0450 000:997 JLINK_WriteReg(R12, 0x00000000)  returns 0x00 (0000ms, 0607ms total)
T0450 000:997 JLINK_WriteReg(R13, 0x20000800)  returns 0x00 (0000ms, 0607ms total)
T0450 000:997 JLINK_WriteReg(R14, 0x20000001)  returns 0x00 (0000ms, 0607ms total)
T0450 000:997 JLINK_WriteReg(R15, 0x20000020)  returns 0x00 (0000ms, 0607ms total)
T0450 000:997 JLINK_WriteReg(XPSR, 0x01000000)  returns 0x00 (0000ms, 0607ms total)
T0450 000:997 JLINK_WriteReg(MSP, 0x20000800)  returns 0x00 (0000ms, 0607ms total)
T0450 000:997 JLINK_WriteReg(PSP, 0x20000800)  returns 0x00 (0000ms, 0607ms total)
T0450 000:997 JLINK_WriteReg(CFBP, 0x00000000)  returns 0x00 (0000ms, 0607ms total)
T0450 000:997 JLINK_SetBPEx(Addr = 0x20000000, Type = 0xFFFFFFF2)  returns 0x00000010 (0000ms, 0607ms total)
T0450 000:997 JLINK_Go() (0003ms, 0610ms total)
T0450 001:000 JLINK_IsHalted() -- CPU_ReadMem(2 bytes @ 0x20000000)  returns TRUE (0005ms, 0615ms total)
T0450 001:005 JLINK_ReadReg(R15)  returns 0x20000000 (0000ms, 0610ms total)
T0450 001:005 JLINK_ClrBPEx(BPHandle = 0x00000010)  returns 0x00 (0000ms, 0610ms total)
T0450 001:005 JLINK_ReadReg(R0)  returns 0x00000001 (0000ms, 0610ms total)
T0450 001:005 JLINK_WriteReg(R0, 0x08003800)  returns 0x00 (0000ms, 0610ms total)
T0450 001:005 JLINK_WriteReg(R1, 0x00000800)  returns 0x00 (0000ms, 0610ms total)
T0450 001:005 JLINK_WriteReg(R2, 0x000000FF)  returns 0x00 (0000ms, 0610ms total)
T0450 001:005 JLINK_WriteReg(R3, 0x00000000)  returns 0x00 (0000ms, 0610ms total)
T0450 001:005 JLINK_WriteReg(R4, 0x00000000)  returns 0x00 (0000ms, 0610ms total)
T0450 001:005 JLINK_WriteReg(R5, 0x00000000)  returns 0x00 (0000ms, 0610ms total)
T0450 001:005 JLINK_WriteReg(R6, 0x00000000)  returns 0x00 (0000ms, 0610ms total)
T0450 001:005 JLINK_WriteReg(R7, 0x00000000)  returns 0x00 (0000ms, 0610ms total)
T0450 001:005 JLINK_WriteReg(R8, 0x00000000)  returns 0x00 (0000ms, 0610ms total)
T0450 001:005 JLINK_WriteReg(R9, 0x20000130)  returns 0x00 (0000ms, 0610ms total)
T0450 001:005 JLINK_WriteReg(R10, 0x00000000)  returns 0x00 (0000ms, 0610ms total)
T0450 001:005 JLINK_WriteReg(R11, 0x00000000)  returns 0x00 (0000ms, 0610ms total)
T0450 001:005 JLINK_WriteReg(R12, 0x00000000)  returns 0x00 (0000ms, 0610ms total)
T0450 001:005 JLINK_WriteReg(R13, 0x20000800)  returns 0x00 (0000ms, 0610ms total)
T0450 001:005 JLINK_WriteReg(R14, 0x20000001)  returns 0x00 (0000ms, 0610ms total)
T0450 001:005 JLINK_WriteReg(R15, 0x200000A0)  returns 0x00 (0000ms, 0610ms total)
T0450 001:005 JLINK_WriteReg(XPSR, 0x01000000)  returns 0x00 (0000ms, 0610ms total)
T0450 001:005 JLINK_WriteReg(MSP, 0x20000800)  returns 0x00 (0000ms, 0610ms total)
T0450 001:005 JLINK_WriteReg(PSP, 0x20000800)  returns 0x00 (0000ms, 0610ms total)
T0450 001:006 JLINK_WriteReg(CFBP, 0x00000000)  returns 0x00 (0000ms, 0611ms total)
T0450 001:006 JLINK_SetBPEx(Addr = 0x20000000, Type = 0xFFFFFFF2)  returns 0x00000011 (0000ms, 0611ms total)
T0450 001:006 JLINK_Go() (0002ms, 0613ms total)
T0450 001:008 JLINK_IsHalted()  returns FALSE (0001ms, 0614ms total)
T0450 001:012 JLINK_IsHalted()  returns FALSE (0001ms, 0614ms total)
T0450 001:014 JLINK_IsHalted()  returns FALSE (0000ms, 0613ms total)
T0450 001:015 JLINK_IsHalted()  returns FALSE (0000ms, 0613ms total)
T0450 001:016 JLINK_IsHalted()  returns FALSE (0001ms, 0614ms total)
T0450 001:023 JLINK_IsHalted()  returns FALSE (0001ms, 0614ms total)
T0450 001:025 JLINK_IsHalted()  returns FALSE (0000ms, 0613ms total)
T0450 001:026 JLINK_IsHalted()  returns FALSE (0000ms, 0613ms total)
T0450 001:027 JLINK_IsHalted()  returns FALSE (0001ms, 0614ms total)
